
# GHz   S   MA   R   50
1.0 0.363 -62.40 12.256 40.27 0.021 -7.21 0.079 -111.83
1.1 0.349 -64.72 11.937 31.80 0.021 -11.15 0.057 -122.11
1.2 0.338 -66.97 11.726 23.70 0.021 -15.27 0.037 -134.96
1.3 0.333 -69.47 11.590 15.99 0.021 -19.39 0.022 -155.81
1.4 0.331 -72.56 11.536 8.54 0.021 -23.49 0.011 153.14
1.5 0.330 -75.77 11.540 1.25 0.021 -27.66 0.016 86.83
1.6 0.332 -79.54 11.620 -5.84 0.020 -31.88 0.025 61.12
1.7 0.337 -83.50 11.751 -12.88 0.020 -36.27 0.034 47.76
1.8 0.345 -88.04 11.924 -19.83 0.020 -40.95 0.042 34.14
1.9 0.354 -92.89 12.173 -26.82 0.019 -45.86 0.050 24.15
2.0 0.365 -98.45 12.460 -33.85 0.019 -51.11 0.054 12.78
2.1 0.376 -104.44 12.798 -41.05 0.019 -56.72 0.058 -1.99
2.2 0.390 -110.49 13.197 -48.32 0.018 -62.58 0.065 -16.74
2.3 0.403 -117.36 13.609 -55.92 0.018 -68.97 0.070 -31.21
2.4 0.420 -124.54 14.058 -63.77 0.017 -76.11 0.077 -47.98
2.5 0.434 -132.38 14.508 -71.91 0.017 -83.90 0.090 -65.73
2.6 0.449 -140.69 14.994 -80.39 0.016 -92.51 0.107 -82.09
2.7 0.463 -149.41 15.403 -89.27 0.016 -101.95 0.126 -97.44
2.8 0.473 -158.73 15.747 -98.57 0.015 -112.06 0.150 -112.41
2.9 0.480 -168.68 15.976 -108.18 0.014 -123.37 0.177 -126.71
3.0 0.481 -179.03 16.074 -118.07 0.014 -135.08 0.210 -139.42
3.1 0.478 170.34 15.996 -128.17 0.014 -147.69 0.242 -151.03
3.2 0.467 159.39 15.696 -138.34 0.013 -160.17 0.270 -162.97
3.3 0.450 148.27 15.228 -148.37 0.013 -172.30 0.300 -174.34
3.4 0.428 137.38 14.633 -158.07 0.013 175.93 0.327 176.01
3.5 0.404 127.03 13.903 -167.45 0.013 165.17 0.347 166.69
3.6 0.381 116.60 13.101 -176.23 0.013 155.28 0.364 157.49
3.7 0.357 106.24 12.271 175.47 0.013 146.87 0.378 149.10
3.8 0.332 96.18 11.474 167.75 0.013 139.24 0.386 141.83
3.9 0.314 83.15 10.730 160.14 0.013 132.16 0.386 134.10
4.0 0.296 74.96 9.999 153.51 0.014 127.06 0.392 128.18
4.1 0.282 66.96 9.308 147.28 0.014 122.02 0.396 122.56
4.2 0.267 58.82 8.687 141.49 0.014 118.13 0.400 117.01
4.3 0.252 51.86 8.143 136.02 0.015 114.50 0.403 112.77
4.4 0.238 45.26 7.647 130.75 0.015 110.83 0.401 108.89
4.5 0.227 39.31 7.182 125.74 0.016 107.90 0.401 104.56
4.6 0.216 32.68 6.770 120.86 0.016 105.34 0.402 100.53
4.7 0.203 26.93 6.392 116.21 0.017 102.88 0.400 96.95
4.8 0.190 20.82 6.056 111.63 0.018 100.30 0.398 93.19
4.9 0.178 15.55 5.740 107.27 0.018 97.92 0.397 89.45
5.0 0.169 10.06 5.448 103.06 0.019 95.81 0.396 86.01
5.1 0.156 4.12 5.181 98.77 0.020 93.45 0.394 82.07
5.2 0.141 -1.67 4.943 94.71 0.020 91.54 0.394 78.96
5.3 0.132 -7.43 4.722 90.73 0.021 89.25 0.391 75.43
5.4 0.122 -14.31 4.515 86.71 0.022 87.22 0.388 71.86
5.5 0.112 -22.69 4.315 82.73 0.023 84.51 0.388 68.09
5.6 0.102 -32.31 4.133 78.92 0.024 82.03 0.388 65.06
5.7 0.093 -41.13 3.971 75.14 0.025 79.79 0.385 61.53
5.8 0.090 -51.19 3.818 71.35 0.025 77.65 0.389 57.47
5.9 0.089 -63.48 3.666 67.57 0.026 75.64 0.389 54.11
6.0 0.091 -76.48 3.537 63.84 0.027 73.59 0.387 50.63