!File name = TGA2598-SM-SN011_25C_25V100mA.s2p
!Base file name = TGA2598-SM-SN011_25C
!Date = 5/3/2014
!Time = 12:47 PM
!Test duration(min) = 0.09
!Test = SPars
!MPTS version = 7.123
!Comments = 
!set_Vg(v) = -5.000
!set_Vd(v) = 25.000
!set_vd(mA) = 100.000
!test = SPars
!date_code = 20140503
!file_name = TGA2598-SM-SN011_25C_25V100mA.s2p
!SN = 011
!Temp = 25C
!Vg(V) = -2.594
!Vg(mA) = -0.001
!Vd(V) = 25.000
!Vd(mA) = 100.223
!Temperature(V) = 0.021
# GHz   S   DB   R   50
!%	Freq(GHz)	     S11(dB)	    S11(deg)	     S21(dB)	    S21(deg)	     S12(dB)	    S12(deg)	     S22(dB)	    S22(deg)
	2.000000000	     -11.063	     -71.165	     -16.147	     131.991	     -60.719	      98.195	      -0.867	    -178.341
	2.100000000	     -11.353	     -72.910	     -14.321	     128.951	     -61.753	      94.585	      -0.929	     175.015
	2.200000000	     -11.639	     -74.827	     -12.356	     124.576	     -61.491	      93.030	      -1.040	     167.817
	2.300000000	     -11.934	     -76.729	     -10.746	     119.952	     -60.972	      85.137	      -1.173	     160.950
	2.400000000	     -12.239	     -78.599	      -9.209	     115.395	     -60.543	      83.035	      -1.312	     154.086
	2.500000000	     -12.562	     -80.542	      -7.828	     110.566	     -61.073	      77.441	      -1.469	     147.573
	2.600000000	     -12.907	     -82.603	      -6.523	     106.147	     -61.269	      79.454	      -1.608	     141.094
	2.700000000	     -13.285	     -84.604	      -5.265	     101.482	     -61.188	      76.656	      -1.772	     134.464
	2.800000000	     -13.678	     -86.647	      -4.042	      96.579	     -61.289	      76.192	      -1.978	     128.027
	2.900000000	     -14.089	     -88.765	      -2.926	      91.849	     -61.462	      72.091	      -2.162	     122.057
	3.000000000	     -14.530	     -90.902	      -1.822	      86.983	     -61.595	      71.216	      -2.356	     115.785
	3.100000000	     -15.009	     -92.994	      -0.738	      82.056	     -61.425	      68.883	      -2.580	     109.571
	3.200000000	     -15.523	     -95.085	       0.311	      77.150	     -61.227	      65.492	      -2.817	     103.676
	3.300000000	     -16.062	     -97.179	       1.326	      72.143	     -61.503	      63.024	      -3.052	      97.799
	3.400000000	     -16.646	     -99.366	       2.332	      67.099	     -61.780	      65.660	      -3.296	      91.834
	3.500000000	     -17.271	    -101.554	       3.320	      62.060	     -61.779	      62.916	      -3.564	      86.144
	3.600000000	     -17.930	    -103.621	       4.292	      57.004	     -61.752	      61.409	      -3.829	      80.506
	3.700000000	     -18.644	    -105.584	       5.259	      51.911	     -62.551	      60.636	      -4.100	      74.716
	3.800000000	     -19.423	    -107.533	       6.244	      46.803	     -62.468	      61.737	      -4.408	      69.078
	3.900000000	     -20.249	    -109.197	       7.244	      41.535	     -62.563	      63.747	      -4.725	      63.576
	4.000000000	     -21.127	    -110.727	       8.230	      36.033	     -62.788	      63.070	      -5.053	      57.983
	4.100000000	     -22.041	    -111.936	       9.222	      30.442	     -63.141	      66.599	      -5.426	      52.409
	4.200000000	     -23.044	    -112.727	      10.219	      24.712	     -63.234	      66.258	      -5.820	      47.004
	4.300000000	     -24.097	    -112.850	      11.222	      18.828	     -62.895	      69.749	      -6.222	      41.462
	4.400000000	     -25.138	    -111.551	      12.249	      12.739	     -62.823	      68.692	      -6.683	      35.707
	4.500000000	     -26.148	    -109.249	      13.294	       6.304	     -63.004	      71.643	      -7.213	      30.056
	4.600000000	     -26.972	    -105.835	      14.336	      -0.445	     -62.860	      74.278	      -7.764	      24.276
	4.700000000	     -27.523	    -101.855	      15.383	      -7.550	     -62.562	      78.141	      -8.398	      18.147
	4.800000000	     -27.638	     -96.308	      16.440	     -15.021	     -62.998	      82.006	      -9.134	      11.964
	4.900000000	     -27.298	     -92.738	      17.502	     -22.940	     -61.993	      86.959	      -9.963	       5.527
	5.000000000	     -26.646	     -90.660	      18.558	     -31.418	     -61.557	      90.374	     -10.896	      -1.449
	5.100000000	     -25.759	     -91.379	      19.603	     -40.517	     -60.479	      95.408	     -12.021	      -9.272
	5.200000000	     -24.788	     -94.667	      20.619	     -50.391	     -59.376	      99.398	     -13.412	     -17.470
	5.300000000	     -24.218	     -99.560	      21.516	     -61.234	     -56.335	      95.326	     -15.442	     -25.999
	5.400000000	     -23.262	    -103.382	      22.326	     -71.909	     -56.417	      80.360	     -17.298	     -30.528
	5.500000000	     -22.467	    -112.591	      23.097	     -83.726	     -56.043	      82.799	     -19.477	     -40.069
	5.600000000	     -22.197	    -121.843	      23.673	     -96.002	     -55.072	      77.404	     -22.307	     -48.325
	5.700000000	     -22.123	    -131.361	      24.074	    -108.422	     -54.376	      73.175	     -25.583	     -57.341
	5.800000000	     -22.288	    -139.854	      24.321	    -120.557	     -54.059	      65.719	     -28.967	     -67.965
	5.900000000	     -22.720	    -148.827	      24.423	    -132.438	     -53.853	      60.299	     -32.090	     -85.945
	6.000000000	     -23.506	    -156.372	      24.390	    -143.662	     -53.609	      54.077	     -33.217	    -108.920
	6.100000000	     -24.656	    -162.586	      24.280	    -154.257	     -53.465	      49.892	     -31.728	    -130.715
	6.200000000	     -25.924	    -166.472	      24.141	    -164.047	     -53.477	      43.525	     -29.217	    -140.855
	6.300000000	     -27.607	    -166.995	      23.956	    -173.346	     -53.581	      37.106	     -26.689	    -149.451
	6.400000000	     -28.906	    -167.469	      23.769	     177.967	     -54.175	      32.108	     -24.396	    -153.018
	6.500000000	     -31.369	    -163.499	      23.558	     169.757	     -54.528	      30.713	     -22.324	    -158.705
	6.600000000	     -34.033	    -147.166	      23.374	     162.043	     -54.257	      30.698	     -20.743	    -163.855
	6.700000000	     -34.103	    -122.441	      23.205	     154.671	     -54.198	      24.109	     -19.373	    -167.747
	6.800000000	     -32.842	    -103.616	      23.059	     147.642	     -54.293	      18.944	     -18.145	    -171.527
	6.900000000	     -30.765	     -88.623	      22.932	     140.801	     -54.828	      17.175	     -17.110	    -175.917
	7.000000000	     -28.159	     -81.878	      22.835	     134.280	     -54.710	      13.915	     -16.318	    -179.921
	7.100000000	     -26.105	     -80.378	      22.773	     127.806	     -54.614	      11.226	     -15.582	     176.327
	7.200000000	     -24.535	     -81.451	      22.740	     121.490	     -54.601	       5.526	     -14.924	     172.369
	7.300000000	     -23.203	     -83.544	      22.715	     115.199	     -54.741	       2.052	     -14.374	     168.287
	7.400000000	     -22.028	     -85.604	      22.722	     108.999	     -54.855	      -2.931	     -13.933	     164.072
	7.500000000	     -21.020	     -88.566	      22.742	     102.814	     -55.010	      -7.719	     -13.610	     159.790
	7.600000000	     -20.257	     -92.319	      22.793	      96.666	     -55.509	     -14.793	     -13.286	     156.005
	7.700000000	     -19.659	     -95.136	      22.848	      90.558	     -56.118	     -18.407	     -12.983	     151.849
	7.800000000	     -19.168	     -98.220	      22.951	      84.432	     -56.777	     -22.256	     -12.646	     147.603
	7.900000000	     -18.712	    -101.252	      23.064	      78.158	     -56.836	     -23.715	     -12.369	     142.428
	8.000000000	     -18.282	    -105.148	      23.198	      71.844	     -57.004	     -29.443	     -12.176	     137.158
	8.100000000	     -17.930	    -109.177	      23.338	      65.379	     -57.384	     -30.094	     -12.001	     131.974
	8.200000000	     -17.634	    -113.294	      23.494	      58.873	     -57.332	     -33.342	     -11.806	     126.334
	8.300000000	     -17.449	    -118.011	      23.660	      52.135	     -57.508	     -39.610	     -11.647	     120.393
	8.400000000	     -17.276	    -123.546	      23.828	      45.330	     -57.834	     -45.112	     -11.469	     114.341
	8.500000000	     -17.230	    -129.890	      24.014	      38.271	     -57.978	     -51.086	     -11.285	     108.092
	8.600000000	     -17.226	    -136.688	      24.186	      31.069	     -58.381	     -56.801	     -11.102	     101.799
	8.700000000	     -17.272	    -144.427	      24.357	      23.666	     -58.639	     -61.604	     -10.909	      95.374
	8.800000000	     -17.277	    -153.215	      24.524	      16.030	     -58.512	     -67.542	     -10.706	      89.034
	8.900000000	     -17.363	    -163.541	      24.667	       8.196	     -58.232	     -78.693	     -10.449	      83.004
	9.000000000	     -17.699	    -175.536	      24.787	      -0.021	     -58.189	     -91.821	     -10.154	      76.557
	9.100000000	     -17.964	     172.773	      24.846	      -8.305	     -58.781	    -106.255	      -9.938	      69.958
	9.200000000	     -18.103	     160.644	      24.867	     -16.620	     -59.516	    -122.610	      -9.739	      63.680
	9.300000000	     -17.976	     148.355	      24.853	     -24.988	     -60.586	    -136.568	      -9.582	      57.888
	9.400000000	     -17.723	     135.638	      24.798	     -33.273	     -61.393	    -149.615	      -9.447	      52.533
	9.500000000	     -17.337	     123.514	      24.707	     -41.611	     -61.720	    -162.995	      -9.337	      47.543
	9.600000000	     -16.798	     112.120	      24.586	     -49.816	     -61.718	    -179.704	      -9.269	      43.093
	9.700000000	     -16.292	     101.934	      24.431	     -57.972	     -61.750	     163.710	      -9.186	      39.075
	9.800000000	     -15.696	      92.977	      24.241	     -65.982	     -62.158	     146.086	      -9.128	      35.431
	9.900000000	     -15.138	      84.482	      24.029	     -73.803	     -62.113	     132.166	      -9.068	      32.605
	10.000000000	     -14.569	      77.304	      23.804	     -81.477	     -62.062	     119.395	      -8.976	      29.912
	10.100000000	     -14.054	      70.845	      23.571	     -88.898	     -62.151	     108.529	      -8.887	      27.301
	10.200000000	     -13.604	      64.785	      23.333	     -96.254	     -62.055	     100.597	      -8.774	      25.172
	10.300000000	     -13.194	      59.133	      23.078	    -103.519	     -61.096	      99.888	      -8.651	      22.410
	10.400000000	     -12.922	      54.263	      22.821	    -110.489	     -59.033	      92.392	      -8.644	      20.126
	10.500000000	     -12.708	      49.780	      22.564	    -117.412	     -57.998	      78.754	      -8.628	      18.166
	10.600000000	     -12.567	      45.941	      22.320	    -124.091	     -57.255	      67.368	      -8.612	      16.582
	10.700000000	     -12.400	      42.707	      22.094	    -130.710	     -56.671	      56.743	      -8.585	      15.066
	10.800000000	     -12.253	      39.909	      21.863	    -137.210	     -56.210	      47.011	      -8.589	      13.390
	10.900000000	     -12.114	      37.724	      21.643	    -143.617	     -55.906	      38.262	      -8.579	      12.160
	11.000000000	     -11.985	      35.659	      21.439	    -149.968	     -55.680	      29.625	      -8.547	      10.725
	11.100000000	     -11.864	      34.121	      21.251	    -156.157	     -55.410	      22.829	      -8.550	       9.358
	11.200000000	     -11.734	      32.261	      21.082	    -162.325	     -55.186	      16.551	      -8.536	       8.171
	11.300000000	     -11.588	      30.559	      20.934	    -168.453	     -54.720	      10.217	      -8.497	       6.698
	11.400000000	     -11.481	      29.157	      20.820	    -174.682	     -54.396	       4.072	      -8.498	       4.951
	11.500000000	     -11.331	      28.171	      20.722	     179.153	     -54.045	      -1.885	      -8.524	       3.462
	11.600000000	     -11.135	      26.968	      20.648	     172.888	     -53.620	      -7.436	      -8.511	       1.671
	11.700000000	     -10.921	      25.676	      20.601	     166.517	     -53.255	     -13.398	      -8.517	      -0.266
	11.800000000	     -10.691	      24.577	      20.566	     160.019	     -52.900	     -19.732	      -8.523	      -2.391
	11.900000000	     -10.415	      23.272	      20.569	     153.388	     -52.689	     -24.550	      -8.509	      -4.810
	12.000000000	     -10.110	      21.738	      20.579	     146.517	     -52.396	     -29.758	      -8.512	      -7.654
	12.100000000	      -9.779	      19.976	      20.624	     139.440	     -51.885	     -35.649	      -8.509	     -10.515
	12.200000000	      -9.402	      18.115	      20.663	     132.046	     -51.527	     -41.289	      -8.507	     -13.863
	12.300000000	      -8.994	      16.127	      20.733	     124.357	     -51.075	     -46.591	      -8.498	     -17.666
	12.400000000	      -8.559	      13.636	      20.790	     116.233	     -50.782	     -53.028	      -8.485	     -22.007
	12.500000000	      -8.116	      10.968	      20.849	     107.731	     -50.497	     -57.860	      -8.477	     -26.577
	12.600000000	      -7.663	       7.745	      20.875	      98.789	     -49.974	     -63.004	      -8.488	     -31.572
	12.700000000	      -7.197	       4.282	      20.890	      89.371	     -49.440	     -70.680	      -8.447	     -37.202
	12.800000000	      -6.768	       0.094	      20.838	      79.421	     -49.219	     -78.528	      -8.450	     -43.438
	12.900000000	      -6.382	      -4.451	      20.718	      68.988	     -49.117	     -86.128	      -8.477	     -50.069
	13.000000000	      -6.069	      -9.164	      20.484	      58.341	     -49.152	     -92.573	      -8.547	     -56.931
	13.100000000	      -5.801	     -14.255	      20.161	      47.391	     -49.082	     -99.438	      -8.647	     -63.811
	13.200000000	      -5.611	     -19.147	      19.707	      36.558	     -49.091	    -105.513	      -8.779	     -70.716
	13.300000000	      -5.523	     -24.148	      19.153	      25.766	     -49.170	    -112.069	      -8.899	     -77.466
	13.400000000	      -5.495	     -28.891	      18.487	      15.396	     -49.424	    -118.720	      -9.049	     -83.929
	13.500000000	      -5.551	     -33.279	      17.729	       5.473	     -49.647	    -126.371	      -9.221	     -90.330
	13.600000000	      -5.643	     -36.912	      16.959	      -3.730	     -50.519	    -133.398	      -9.416	     -95.470
	13.700000000	      -5.692	     -40.115	      16.159	     -12.812	     -51.477	    -134.331	      -9.475	    -100.249
	13.800000000	      -5.758	     -43.154	      15.296	     -21.522	     -51.742	    -135.117	      -9.514	    -105.131
	13.900000000	      -5.830	     -45.896	      14.406	     -29.713	     -51.952	    -136.543	      -9.553	    -109.733
	14.000000000	      -5.893	     -48.264	      13.499	     -37.430	     -52.028	    -138.940	      -9.554	    -113.950
	14.100000000	      -5.982	     -50.391	      12.594	     -44.722	     -52.376	    -140.693	      -9.531	    -118.007
	14.200000000	      -6.034	     -52.119	      11.696	     -51.554	     -52.657	    -141.538	      -9.494	    -122.062
	14.300000000	      -6.095	     -53.720	      10.815	     -58.151	     -52.818	    -142.455	      -9.447	    -125.981
	14.400000000	      -6.132	     -54.965	       9.951	     -64.419	     -52.864	    -143.833	      -9.407	    -129.773
	14.500000000	      -6.163	     -56.164	       9.100	     -70.479	     -52.993	    -144.856	      -9.374	    -133.559
	14.600000000	      -6.160	     -57.097	       8.268	     -76.308	     -52.859	    -146.355	      -9.343	    -137.193
	14.700000000	      -6.167	     -58.006	       7.449	     -81.913	     -53.018	    -147.008	      -9.292	    -140.970
	14.800000000	      -6.160	     -58.932	       6.646	     -87.395	     -52.958	    -148.602	      -9.254	    -144.820
	14.900000000	      -6.152	     -59.733	       5.871	     -92.682	     -52.851	    -151.012	      -9.243	    -148.508
	15.000000000	      -6.111	     -60.462	       5.106	     -97.876	     -53.100	    -153.059	      -9.217	    -152.487
	15.100000000	      -6.078	     -61.068	       4.365	    -102.951	     -53.395	    -153.320	      -9.221	    -156.619
	15.200000000	      -6.048	     -61.835	       3.633	    -107.968	     -53.383	    -152.659	      -9.207	    -160.883
	15.300000000	      -6.010	     -62.554	       2.915	    -112.925	     -53.325	    -154.243	      -9.198	    -165.211
	15.400000000	      -5.988	     -63.187	       2.213	    -117.753	     -53.658	    -154.711	      -9.186	    -169.986
	15.500000000	      -5.953	     -64.001	       1.521	    -122.594	     -53.598	    -153.971	      -9.214	    -174.913
	15.600000000	      -5.897	     -64.852	       0.843	    -127.385	     -53.536	    -153.416	      -9.229	    -179.726
	15.700000000	      -5.852	     -65.736	       0.170	    -132.109	     -53.477	    -153.012	      -9.214	     175.088
	15.800000000	      -5.815	     -66.737	      -0.492	    -136.821	     -53.528	    -151.439	      -9.198	     169.440
	15.900000000	      -5.762	     -67.557	      -1.146	    -141.486	     -53.170	    -149.681	      -9.190	     163.672
	16.000000000	      -5.711	     -68.524	      -1.795	    -146.142	     -52.731	    -147.485	      -9.163	     157.909
	16.100000000	      -5.653	     -69.606	      -2.440	    -150.778	     -52.303	    -146.427	      -9.060	     151.829
	16.200000000	      -5.597	     -70.641	      -3.080	    -155.410	     -51.637	    -144.800	      -8.974	     145.420
	16.300000000	      -5.564	     -71.941	      -3.717	    -160.040	     -50.690	    -144.815	      -8.846	     139.289
	16.400000000	      -5.524	     -73.239	      -4.354	    -164.659	     -49.662	    -146.472	      -8.664	     132.895
	16.500000000	      -5.470	     -74.567	      -4.985	    -169.273	     -48.557	    -149.548	      -8.480	     126.288
	16.600000000	      -5.381	     -76.099	      -5.627	    -173.898	     -47.537	    -154.164	      -8.253	     120.049
	16.700000000	      -5.358	     -77.744	      -6.267	    -178.459	     -46.593	    -161.725	      -7.965	     114.203
	16.800000000	      -5.302	     -79.273	      -6.904	     176.940	     -45.982	    -171.030	      -7.684	     107.768
	16.900000000	      -5.235	     -80.841	      -7.550	     172.357	     -45.682	     179.078	      -7.395	     101.833
	17.000000000	      -5.157	     -82.756	      -8.209	     167.805	     -45.783	     169.646	      -6.998	      96.392