! TriQuint Semiconductor
! TQP3M9028 High Linearity LNA Gain Block
! SOT-89 Package
! The data is for the unmatched device in a 50 Ohm system, 2-port file de-embedded to the device leads.
! Device bias: +5V V @ 85 mA Icq
! Temperature: 25C
! Date: 03/25/2011
! Lot Code: H828 
!  Port 1 corresponds to Pin 1 on the TQP3M9028 (RF input)
!  Port 2 corresponds to Pin 3 on the TQP3M9028 (RF output)
! All data in ma (Magnitude/Angle) format  

! freq-unit   param-type   data-format   keyword   impedance-ohms
# GHZ   S   MA   R   50
!-----------------------------------------------------------------------------
     !Freq     S11Mag     S11Ang     S21Mag     S21Ang     S12Mag     S12Ang     S22Mag     S22Ang           
   +0.0100	   +0.2529	  -51.0953	   +7.5378	 +167.8486	   +0.0915	  +13.5414	   +0.1788	  -65.2018
   +0.0200	   +0.1873	  -54.7179	   +7.2205	 +169.5130	   +0.0983	   +8.6193	   +0.1274	  -71.4327
   +0.0300	   +0.1635	  -62.8933	   +6.9919	 +168.2910	   +0.1009	  +10.0002	   +0.1166	  -81.0383
   +0.0400	   +0.1438	  -72.1573	   +6.8217	 +167.8540	   +0.1016	   +6.0100	   +0.1133	  -94.4215
   +0.0500	   +0.1291	  -79.9769	   +6.6264	 +168.2396	   +0.1044	   +4.3045	   +0.1094	 -103.6718
   +0.0600	   +0.1191	  -87.5962	   +6.4976	 +167.4478	   +0.1071	   +4.5874	   +0.1081	 -111.1693
   +0.0700	   +0.1116	  -94.5806	   +6.3614	 +166.7638	   +0.1088	   +3.9658	   +0.1073	 -118.7765
   +0.0800	   +0.1048	 -100.5487	   +6.2266	 +166.9566	   +0.1096	   +2.1872	   +0.1084	 -124.3625
   +0.0900	   +0.0987	 -105.8998	   +6.1899	 +166.6642	   +0.1102	   +1.7024	   +0.1166	 -130.1186
   +0.1000	   +0.0924	 -111.1141	   +6.1027	 +165.7547	   +0.1106	   -0.3832	   +0.1091	 -133.6658
   +0.1100	   +0.0888	 -113.9910	   +6.1002	 +166.0939	   +0.1116	   +0.3213	   +0.1046	 -140.0307
   +0.1200	   +0.0878	 -117.6140	   +6.0307	 +165.8659	   +0.1116	   -0.2095	   +0.1004	 -144.4735
   +0.1300	   +0.0806	 -119.5704	   +5.9628	 +165.3646	   +0.1125	   -1.0820	   +0.1032	 -144.3634
   +0.1400	   +0.0771	 -122.1973	   +5.9251	 +165.1255	   +0.1129	   -2.3253	   +0.1041	 -151.4267
   +0.1500	   +0.0744	 -126.3687	   +5.9511	 +164.3148	   +0.1120	   -3.0872	   +0.1079	 -146.9819
   +0.1600	   +0.0714	 -129.6942	   +5.8655	 +163.8938	   +0.1129	   -3.1311	   +0.1065	 -153.5286
   +0.1700	   +0.0697	 -131.0461	   +5.9126	 +163.7127	   +0.1113	   -4.5467	   +0.1105	 -157.0144
   +0.1800	   +0.0683	 -134.3300	   +5.8541	 +163.2261	   +0.1128	   -3.7079	   +0.1038	 -157.8348
   +0.1900	   +0.0663	 -137.9471	   +5.8621	 +162.4457	   +0.1127	   -4.3850	   +0.1033	 -159.7283
   +0.2000	   +0.0651	 -139.8237	   +5.8435	 +161.8800	   +0.1148	   -5.7231	   +0.1033	 -156.9726
   +0.2100	   +0.0642	 -142.2650	   +5.8488	 +161.7057	   +0.1145	   -6.6592	   +0.1049	 -160.0952
   +0.2200	   +0.0627	 -145.7126	   +5.8228	 +161.0173	   +0.1128	   -7.8946	   +0.1033	 -164.4727
   +0.2300	   +0.0624	 -145.9951	   +5.8294	 +160.7705	   +0.1127	   -6.7864	   +0.1008	 -163.9468
   +0.2400	   +0.0619	 -147.0948	   +5.8356	 +160.0284	   +0.1132	   -7.2903	   +0.0974	 -167.2307
   +0.2500	   +0.0589	 -151.3107	   +5.8491	 +159.1375	   +0.1111	   -8.3859	   +0.0977	 -167.7191
   +0.2600	   +0.0580	 -152.0002	   +5.8054	 +158.9422	   +0.1120	   -8.1558	   +0.1033	 -165.1705
   +0.2700	   +0.0551	 -152.0885	   +5.7844	 +158.5974	   +0.1111	  -10.4733	   +0.1005	 -169.0065
   +0.2800	   +0.0569	 -152.0576	   +5.7972	 +158.0498	   +0.1117	  -10.0078	   +0.1011	 -168.9698
   +0.2900	   +0.0563	 -155.6165	   +5.7944	 +157.2033	   +0.1161	   -9.8795	   +0.1035	 -170.9578
   +0.3000	   +0.0546	 -154.4033	   +5.7444	 +156.5750	   +0.1122	   -9.9419	   +0.1015	 -169.3347
   +0.3100	   +0.0569	 -158.1843	   +5.7406	 +155.8713	   +0.1123	  -11.9728	   +0.1086	 -172.6732
   +0.3200	   +0.0546	 -159.8408	   +5.7783	 +155.1349	   +0.1122	  -10.9847	   +0.1029	 -174.3505
   +0.3300	   +0.0542	 -162.6943	   +5.7296	 +155.0303	   +0.1136	  -13.1620	   +0.1024	 -171.0509
   +0.3400	   +0.0583	 -161.1027	   +5.7454	 +154.3605	   +0.1137	  -13.0439	   +0.0963	 -172.0454
   +0.3500	   +0.0564	 -160.5249	   +5.7843	 +153.8037	   +0.1144	  -13.2053	   +0.0989	 -167.9592
   +0.3600	   +0.0548	 -159.6308	   +5.8011	 +153.3605	   +0.1140	  -13.3284	   +0.0969	 -171.7076
   +0.3700	   +0.0533	 -161.9747	   +5.7691	 +153.0489	   +0.1151	  -13.6477	   +0.0922	 -178.3531
   +0.3800	   +0.0522	 -164.4725	   +5.7345	 +151.8704	   +0.1129	  -14.3976	   +0.0935	 -177.7896
   +0.3900	   +0.0533	 -158.6955	   +5.7187	 +151.7610	   +0.1133	  -14.8076	   +0.0887	 -175.2896
   +0.4000	   +0.0498	 -167.8341	   +5.6976	 +150.4208	   +0.1103	  -15.4327	   +0.0938	 +179.3850
   +0.4100	   +0.0534	 -165.9895	   +5.6687	 +149.6160	   +0.1139	  -16.2748	   +0.0942	 +179.9814
   +0.4200	   +0.0528	 -167.9685	   +5.7479	 +149.0304	   +0.1111	  -15.7028	   +0.0883	 +179.4334
   +0.4300	   +0.0515	 -167.6096	   +5.7660	 +148.9518	   +0.1126	  -17.4787	   +0.0898	 +178.5119
   +0.4400	   +0.0510	 -162.8711	   +5.7753	 +148.2611	   +0.1172	  -16.3786	   +0.0889	 +175.3757
   +0.4500	   +0.0468	 -172.8069	   +5.7057	 +147.7264	   +0.1111	  -17.3970	   +0.0908	 +173.8984
   +0.4600	   +0.0469	 -175.0003	   +5.6591	 +147.3191	   +0.1111	  -18.1097	   +0.0917	 +173.0458
   +0.4700	   +0.0474	 -173.8272	   +5.6870	 +145.8126	   +0.1133	  -18.4478	   +0.0921	 +174.1120
   +0.4800	   +0.0472	 -174.2737	   +5.6529	 +145.4513	   +0.1105	  -19.5844	   +0.0884	 +175.3521
   +0.4900	   +0.0493	 -178.6698	   +5.7009	 +144.9236	   +0.1128	  -19.2337	   +0.0982	 +171.2496
   +0.5000	   +0.0470	 -175.9987	   +5.7307	 +144.6280	   +0.1156	  -19.7552	   +0.0933	 +168.2203
   +0.5100	   +0.0510	 -177.0127	   +5.7385	 +143.8395	   +0.1158	  -20.7872	   +0.0904	 +169.7055
   +0.5200	   +0.0502	 -177.3312	   +5.7235	 +143.2948	   +0.1115	  -21.5638	   +0.0903	 +171.1412
   +0.5300	   +0.0497	 -177.7456	   +5.7168	 +142.6808	   +0.1133	  -21.1345	   +0.0945	 +173.7968
   +0.5400	   +0.0532	 -173.7979	   +5.6438	 +141.6131	   +0.1128	  -22.0820	   +0.0939	 +172.6280
   +0.5500	   +0.0503	 -175.3972	   +5.6769	 +141.2255	   +0.1116	  -22.7598	   +0.0894	 +172.5052
   +0.5600	   +0.0502	 -174.4038	   +5.6642	 +140.1514	   +0.1132	  -21.7264	   +0.0915	 +173.5264
   +0.5700	   +0.0459	 -172.4233	   +5.6628	 +140.0142	   +0.1131	  -23.8241	   +0.0869	 +173.2392
   +0.5800	   +0.0447	 -171.1251	   +5.5845	 +139.3827	   +0.1112	  -23.8128	   +0.0838	 +171.6216
   +0.5900	   +0.0444	 -172.8649	   +5.6504	 +138.8120	   +0.1127	  -23.3998	   +0.0832	 +168.1879
   +0.6000	   +0.0425	 -174.2226	   +5.6675	 +138.4909	   +0.1111	  -24.0104	   +0.0790	 +170.3940
   +0.6100	   +0.0436	 -176.1223	   +5.7088	 +137.6970	   +0.1137	  -23.8264	   +0.0832	 +170.6089
   +0.6200	   +0.0430	 -175.9590	   +5.6191	 +136.9243	   +0.1121	  -25.6023	   +0.0803	 +169.1632
   +0.6300	   +0.0415	 -178.2065	   +5.6828	 +136.0009	   +0.1119	  -26.2716	   +0.0831	 +164.4645
   +0.6400	   +0.0420	 +179.0753	   +5.6603	 +135.7916	   +0.1131	  -24.9773	   +0.0818	 +164.3480
   +0.6500	   +0.0397	 +179.2510	   +5.6893	 +135.1878	   +0.1131	  -26.4259	   +0.0840	 +158.6304
   +0.6600	   +0.0448	 +174.4414	   +5.6625	 +134.6716	   +0.1132	  -26.1816	   +0.0899	 +161.6619
   +0.6700	   +0.0438	 +178.2644	   +5.6797	 +133.3819	   +0.1122	  -27.7072	   +0.0897	 +159.1298
   +0.6800	   +0.0468	 +179.1644	   +5.6631	 +132.4194	   +0.1107	  -28.0090	   +0.0830	 +158.7877
   +0.6900	   +0.0464	 +178.0224	   +5.6860	 +131.8812	   +0.1137	  -28.0072	   +0.0877	 +163.6515
   +0.7000	   +0.0504	 +178.4335	   +5.6632	 +131.5782	   +0.1109	  -29.4765	   +0.0922	 +160.9346
   +0.7100	   +0.0475	 -179.0802	   +5.6706	 +130.3201	   +0.1107	  -29.4975	   +0.0864	 +165.4894
   +0.7200	   +0.0481	 +176.5946	   +5.6536	 +129.9478	   +0.1089	  -30.5821	   +0.0812	 +161.4170
   +0.7300	   +0.0416	 +173.1344	   +5.6759	 +129.1309	   +0.1115	  -31.0827	   +0.0842	 +167.1537
   +0.7400	   +0.0466	 +176.4722	   +5.6600	 +128.9755	   +0.1127	  -31.5752	   +0.0862	 +160.0041
   +0.7500	   +0.0441	 +176.6191	   +5.6450	 +127.8641	   +0.1115	  -31.7375	   +0.0786	 +161.2996
   +0.7600	   +0.0430	 +176.1364	   +5.6359	 +127.1002	   +0.1116	  -32.0880	   +0.0721	 +160.8868
   +0.7700	   +0.0425	 +176.9016	   +5.6293	 +126.6666	   +0.1110	  -32.1649	   +0.0789	 +157.6690
   +0.7800	   +0.0380	 +173.8753	   +5.6406	 +126.2082	   +0.1123	  -32.7399	   +0.0814	 +160.5126
   +0.7900	   +0.0394	 +179.4066	   +5.6182	 +125.2095	   +0.1129	  -33.2348	   +0.0747	 +162.4630
   +0.8000	   +0.0383	 +175.5827	   +5.6039	 +124.6877	   +0.1111	  -32.7223	   +0.0789	 +163.6638
   +0.8100	   +0.0393	 +171.6745	   +5.6048	 +123.9351	   +0.1104	  -33.2976	   +0.0720	 +159.2932
   +0.8200	   +0.0381	 +172.5963	   +5.6144	 +123.6832	   +0.1119	  -33.3558	   +0.0756	 +158.3936
   +0.8300	   +0.0417	 +172.3057	   +5.5877	 +122.8110	   +0.1112	  -33.9742	   +0.0787	 +155.6455
   +0.8400	   +0.0413	 +168.4384	   +5.5991	 +122.0525	   +0.1112	  -34.7620	   +0.0722	 +156.2663
   +0.8500	   +0.0386	 +168.4935	   +5.5807	 +121.3751	   +0.1102	  -35.2569	   +0.0738	 +154.9400
   +0.8600	   +0.0403	 +172.0502	   +5.6088	 +120.7871	   +0.1106	  -35.9883	   +0.0778	 +156.7933
   +0.8700	   +0.0387	 +173.5538	   +5.5861	 +120.4888	   +0.1112	  -35.3871	   +0.0773	 +155.7627
   +0.8800	   +0.0371	 +172.0482	   +5.5908	 +119.7579	   +0.1114	  -36.8707	   +0.0810	 +155.5078
   +0.8900	   +0.0381	 +173.5356	   +5.5969	 +119.1165	   +0.1119	  -36.5261	   +0.0716	 +156.3951
   +0.9000	   +0.0371	 +164.9351	   +5.5747	 +118.4360	   +0.1098	  -37.3950	   +0.0722	 +152.3613
   +0.9100	   +0.0366	 +170.1815	   +5.5636	 +117.5951	   +0.1095	  -37.7217	   +0.0738	 +151.6892
   +0.9200	   +0.0355	 +165.4639	   +5.5958	 +117.1050	   +0.1117	  -39.6364	   +0.0747	 +155.0860
   +0.9300	   +0.0344	 +165.4512	   +5.5830	 +116.3667	   +0.1116	  -38.6457	   +0.0743	 +154.7874
   +0.9400	   +0.0346	 +163.3210	   +5.5938	 +115.8884	   +0.1112	  -39.0290	   +0.0709	 +159.0928
   +0.9500	   +0.0366	 +166.7077	   +5.5635	 +115.0649	   +0.1123	  -39.1501	   +0.0761	 +155.1858
   +0.9600	   +0.0365	 +162.1322	   +5.5864	 +114.3899	   +0.1100	  -39.6537	   +0.0749	 +153.7966
   +0.9700	   +0.0369	 +160.3263	   +5.5882	 +113.8718	   +0.1102	  -39.7094	   +0.0733	 +154.3014
   +0.9800	   +0.0372	 +160.3967	   +5.5510	 +113.0275	   +0.1088	  -40.5253	   +0.0701	 +155.9932
   +0.9900	   +0.0383	 +161.3748	   +5.5784	 +112.5763	   +0.1094	  -40.8143	   +0.0745	 +155.1517
   +1.0000	   +0.0394	 +168.6199	   +5.5522	 +112.0049	   +0.1089	  -42.4864	   +0.0706	 +152.7189
   +1.0100	   +0.0390	 +164.2558	   +5.5543	 +111.3510	   +0.1098	  -41.2632	   +0.0709	 +153.0129
   +1.0200	   +0.0387	 +168.5260	   +5.5725	 +110.7376	   +0.1100	  -41.5223	   +0.0699	 +152.9413
   +1.0300	   +0.0403	 +167.3618	   +5.5686	 +109.8475	   +0.1103	  -43.1730	   +0.0687	 +151.5581
   +1.0400	   +0.0405	 +167.3886	   +5.6013	 +109.1070	   +0.1095	  -43.1950	   +0.0708	 +150.9280
   +1.0500	   +0.0397	 +166.0118	   +5.5445	 +108.7501	   +0.1114	  -43.7274	   +0.0748	 +155.7929
   +1.0600	   +0.0405	 +165.1257	   +5.5612	 +107.6856	   +0.1102	  -43.6159	   +0.0679	 +154.0711
   +1.0700	   +0.0406	 +166.4110	   +5.5765	 +107.1228	   +0.1076	  -44.4771	   +0.0695	 +152.1690
   +1.0800	   +0.0398	 +167.8058	   +5.5587	 +106.5168	   +0.1096	  -44.3188	   +0.0690	 +154.0849
   +1.0900	   +0.0388	 +166.4888	   +5.5440	 +105.8841	   +0.1076	  -45.4853	   +0.0692	 +150.8617
   +1.1000	   +0.0396	 +166.6664	   +5.5770	 +105.3059	   +0.1097	  -46.4860	   +0.0638	 +147.2057
   +1.1100	   +0.0392	 +167.2923	   +5.5491	 +104.3805	   +0.1073	  -47.0118	   +0.0614	 +149.9644
   +1.1200	   +0.0417	 +169.2530	   +5.5237	 +103.8968	   +0.1099	  -47.6273	   +0.0655	 +153.5707
   +1.1300	   +0.0409	 +169.3250	   +5.5444	 +103.2524	   +0.1102	  -46.9352	   +0.0611	 +151.2115
   +1.1400	   +0.0405	 +168.0303	   +5.5432	 +102.7760	   +0.1085	  -48.6049	   +0.0632	 +146.8352
   +1.1500	   +0.0397	 +170.6093	   +5.5218	 +102.0144	   +0.1090	  -48.3208	   +0.0621	 +151.0859
   +1.1600	   +0.0402	 +169.1112	   +5.5347	 +101.1553	   +0.1095	  -48.0763	   +0.0606	 +153.4350
   +1.1700	   +0.0401	 +168.7611	   +5.5430	 +100.5656	   +0.1079	  -49.1557	   +0.0610	 +148.8756
   +1.1800	   +0.0398	 +172.0069	   +5.5318	  +99.8523	   +0.1092	  -50.2969	   +0.0568	 +149.6830
   +1.1900	   +0.0410	 +174.9127	   +5.4949	  +99.2711	   +0.1076	  -50.5332	   +0.0591	 +149.1732
   +1.2000	   +0.0405	 +173.6259	   +5.5188	  +98.3918	   +0.1097	  -50.9782	   +0.0582	 +147.5444
   +1.2100	   +0.0379	 +174.8723	   +5.5122	  +98.1326	   +0.1090	  -50.4812	   +0.0555	 +147.6811
   +1.2200	   +0.0382	 +174.1298	   +5.5322	  +97.2611	   +0.1077	  -51.8391	   +0.0550	 +149.6232
   +1.2300	   +0.0407	 +177.3620	   +5.5392	  +96.6007	   +0.1084	  -51.6678	   +0.0505	 +150.0850
   +1.2400	   +0.0403	 +177.2310	   +5.5066	  +96.1797	   +0.1101	  -51.4847	   +0.0552	 +148.8148
   +1.2500	   +0.0413	 +173.5976	   +5.5262	  +95.7607	   +0.1075	  -52.0995	   +0.0575	 +151.0493
   +1.2600	   +0.0420	 +174.1443	   +5.5284	  +94.6710	   +0.1092	  -52.6581	   +0.0536	 +149.2956
   +1.2700	   +0.0426	 +173.6564	   +5.5040	  +94.0188	   +0.1081	  -53.3905	   +0.0524	 +149.7547
   +1.2800	   +0.0421	 +174.5146	   +5.5457	  +93.4527	   +0.1074	  -54.8348	   +0.0477	 +151.6679
   +1.2900	   +0.0415	 +174.2013	   +5.5332	  +92.9490	   +0.1112	  -53.8992	   +0.0494	 +150.7022
   +1.3000	   +0.0440	 +176.0031	   +5.5583	  +91.6889	   +0.1079	  -54.8588	   +0.0493	 +155.6294
   +1.3100	   +0.0430	 +176.6313	   +5.5487	  +91.2656	   +0.1094	  -55.0671	   +0.0454	 +150.7042
   +1.3200	   +0.0423	 +177.2260	   +5.5043	  +90.4524	   +0.1085	  -55.6200	   +0.0506	 +151.7277
   +1.3300	   +0.0442	 +177.1402	   +5.5288	  +89.9342	   +0.1073	  -56.2952	   +0.0429	 +152.3478
   +1.3400	   +0.0438	 -178.2202	   +5.5212	  +89.5693	   +0.1092	  -57.9231	   +0.0452	 +152.8786
   +1.3500	   +0.0452	 +179.5332	   +5.4904	  +88.5986	   +0.1070	  -56.6719	   +0.0495	 +146.5764
   +1.3600	   +0.0454	 -177.9759	   +5.5363	  +87.8696	   +0.1040	  -58.1418	   +0.0437	 +153.8181
   +1.3700	   +0.0458	 -176.5561	   +5.5112	  +87.4763	   +0.1061	  -57.7907	   +0.0451	 +154.2031
   +1.3800	   +0.0429	 +179.7913	   +5.5549	  +86.6489	   +0.1089	  -58.3857	   +0.0475	 +150.7843
   +1.3900	   +0.0405	 +179.7518	   +5.5372	  +85.8939	   +0.1078	  -59.2185	   +0.0458	 +153.0235
   +1.4000	   +0.0410	 -176.0981	   +5.4870	  +85.3909	   +0.1064	  -59.5436	   +0.0416	 +150.4472
   +1.4100	   +0.0447	 -176.5532	   +5.5118	  +84.8692	   +0.1050	  -59.8266	   +0.0395	 +155.7108
   +1.4200	   +0.0428	 -178.2162	   +5.4755	  +84.1549	   +0.1069	  -60.1144	   +0.0403	 +159.5366
   +1.4300	   +0.0465	 -177.4862	   +5.4838	  +83.5660	   +0.1066	  -59.7911	   +0.0403	 +160.8781
   +1.4400	   +0.0460	 -173.3768	   +5.5033	  +83.0515	   +0.1064	  -60.7756	   +0.0415	 +157.1822
   +1.4500	   +0.0480	 -175.8875	   +5.5172	  +82.2152	   +0.1080	  -60.9269	   +0.0398	 +157.1887
   +1.4600	   +0.0502	 -177.8365	   +5.4927	  +81.4626	   +0.1050	  -61.8642	   +0.0411	 +153.4147
   +1.4700	   +0.0502	 -176.4734	   +5.4946	  +80.7001	   +0.1078	  -63.4467	   +0.0375	 +167.0543
   +1.4800	   +0.0498	 -172.3882	   +5.4997	  +80.0664	   +0.1049	  -61.9041	   +0.0372	 +162.4507
   +1.4900	   +0.0519	 -176.7682	   +5.4742	  +79.3601	   +0.1067	  -62.7018	   +0.0403	 +163.4305
   +1.5000	   +0.0527	 -173.7459	   +5.4741	  +78.7743	   +0.1061	  -64.5185	   +0.0391	 +162.0181
   +1.5100	   +0.0514	 -171.3039	   +5.4881	  +78.0982	   +0.1057	  -63.2741	   +0.0326	 +153.7734
   +1.5200	   +0.0536	 -169.6412	   +5.4816	  +77.4939	   +0.1049	  -64.5908	   +0.0355	 +160.6975
   +1.5300	   +0.0506	 -169.4140	   +5.5143	  +77.0466	   +0.1064	  -64.6095	   +0.0352	 +166.7270
   +1.5400	   +0.0530	 -170.7513	   +5.4645	  +75.9600	   +0.1064	  -64.5871	   +0.0310	 +165.4812
   +1.5500	   +0.0515	 -171.4016	   +5.5042	  +75.4706	   +0.1075	  -65.4484	   +0.0300	 +163.8425
   +1.5600	   +0.0515	 -170.6471	   +5.5055	  +74.6381	   +0.1056	  -66.7682	   +0.0296	 +167.9635
   +1.5700	   +0.0517	 -165.6508	   +5.4871	  +73.9842	   +0.1045	  -66.8514	   +0.0283	 +172.9099
   +1.5800	   +0.0503	 -170.1591	   +5.4875	  +73.5444	   +0.1048	  -67.1757	   +0.0349	 +174.5020
   +1.5900	   +0.0516	 -169.5249	   +5.5042	  +72.7835	   +0.1064	  -67.1181	   +0.0296	 +174.6837
   +1.6000	   +0.0531	 -170.2144	   +5.4859	  +71.7844	   +0.1042	  -67.6653	   +0.0303	 +178.0690
   +1.6100	   +0.0535	 -169.2585	   +5.4476	  +71.3458	   +0.1051	  -68.4125	   +0.0352	 +174.7712
   +1.6200	   +0.0535	 -171.0155	   +5.5188	  +70.9583	   +0.1062	  -70.0086	   +0.0274	 -178.8417
   +1.6300	   +0.0545	 -167.6461	   +5.4880	  +70.5422	   +0.1051	  -68.3974	   +0.0331	 -173.0066
   +1.6400	   +0.0534	 -169.6357	   +5.4771	  +69.5318	   +0.1057	  -70.3344	   +0.0286	 -166.6674
   +1.6500	   +0.0570	 -170.6184	   +5.4826	  +68.8354	   +0.1041	  -70.8184	   +0.0365	 -166.7125
   +1.6600	   +0.0611	 -169.9286	   +5.4683	  +68.5302	   +0.1054	  -71.4732	   +0.0290	 -162.8585
   +1.6700	   +0.0593	 -170.1572	   +5.4849	  +67.3741	   +0.1017	  -71.8124	   +0.0277	 -170.0935
   +1.6800	   +0.0601	 -172.2694	   +5.5222	  +66.9557	   +0.1051	  -70.7374	   +0.0289	 -152.6186
   +1.6900	   +0.0599	 -170.8125	   +5.4797	  +66.4468	   +0.1041	  -72.0978	   +0.0331	 -169.3617
   +1.7000	   +0.0608	 -173.1487	   +5.5209	  +65.2902	   +0.1038	  -72.9995	   +0.0274	 -153.5347
   +1.7100	   +0.0615	 -170.6049	   +5.5163	  +64.8209	   +0.1037	  -72.5475	   +0.0284	 -157.5165
   +1.7200	   +0.0627	 -170.1470	   +5.4558	  +63.8351	   +0.1024	  -73.9177	   +0.0275	 -162.5592
   +1.7300	   +0.0628	 -173.7013	   +5.4926	  +63.4270	   +0.1024	  -73.6156	   +0.0283	 -147.7362
   +1.7400	   +0.0657	 -172.9447	   +5.4744	  +62.9310	   +0.1041	  -74.2582	   +0.0242	 -156.1492
   +1.7500	   +0.0631	 -173.6858	   +5.4764	  +62.2423	   +0.1026	  -74.6974	   +0.0303	 -153.1402
   +1.7600	   +0.0634	 -172.2275	   +5.5035	  +61.3384	   +0.1038	  -76.1415	   +0.0317	 -159.2070
   +1.7700	   +0.0651	 -173.6135	   +5.4757	  +60.6154	   +0.1037	  -75.9525	   +0.0290	 -153.4147
   +1.7800	   +0.0650	 -171.0183	   +5.4966	  +59.8385	   +0.1028	  -75.9338	   +0.0263	 -152.2531
   +1.7900	   +0.0671	 -171.2107	   +5.4962	  +59.6534	   +0.1037	  -76.1059	   +0.0322	 -151.0701
   +1.8000	   +0.0684	 -171.8514	   +5.4205	  +58.7950	   +0.1033	  -76.8292	   +0.0312	 -137.5543
   +1.8100	   +0.0710	 -170.7468	   +5.5080	  +57.8724	   +0.1017	  -77.7263	   +0.0324	 -140.7184
   +1.8200	   +0.0712	 -174.0498	   +5.4249	  +57.5365	   +0.1044	  -78.9745	   +0.0326	 -141.2826
   +1.8300	   +0.0698	 -171.9904	   +5.4777	  +56.4927	   +0.1050	  -77.8035	   +0.0400	 -140.0149
   +1.8400	   +0.0692	 -175.0259	   +5.4986	  +56.0961	   +0.1045	  -77.8586	   +0.0380	 -135.2093
   +1.8500	   +0.0692	 -173.9126	   +5.4372	  +55.7969	   +0.1007	  -79.7095	   +0.0369	 -144.6509
   +1.8600	   +0.0720	 -174.2423	   +5.4672	  +54.3332	   +0.1030	  -78.1426	   +0.0395	 -143.1057
   +1.8700	   +0.0715	 -173.4870	   +5.4918	  +53.8606	   +0.1003	  -80.2598	   +0.0363	 -138.4508
   +1.8800	   +0.0707	 -173.5399	   +5.4352	  +53.0189	   +0.1012	  -79.2134	   +0.0410	 -130.6114
   +1.8900	   +0.0745	 -174.7915	   +5.4849	  +52.8093	   +0.1033	  -80.9047	   +0.0428	 -138.4480
   +1.9000	   +0.0726	 -173.2638	   +5.4721	  +52.4665	   +0.1028	  -80.0684	   +0.0417	 -133.4314
   +1.9100	   +0.0718	 -174.2270	   +5.4537	  +51.2769	   +0.1028	  -81.6128	   +0.0409	 -139.5024
   +1.9200	   +0.0740	 -174.9302	   +5.4680	  +51.2787	   +0.1026	  -83.1640	   +0.0465	 -138.5585
