! TriQuint Semiconductor
! TQP3M9007 High Linearity LNA Gain Block
! SOT-89 Package
! The data is for the unmatched device in a 50 Ohm system, 2-port file de-embedded to the device leads.
! Device bias: +5V V @ 135 mA Icq
! Temperature: 25C
! Date: 04/05/2011
! Lot Code: N/A 
!  Port 1 corresponds to Pin 1 on the TQP3M9007 (RF input)
!  Port 2 corresponds to Pin 3 on the TQP3M9007 (RF output)
! All data in ma (Magnitude/Angle) format  
! freq-unit   param-type   data-format   keyword   impedance-ohms
# GHZ   S   MA   R   50
!-----------------------------------------------------------------------------
   !Freq         S11Mag        S11Ang        S21Mag        S21Ang         S12Mag         S12Ang         S22Mag       S22Ang           
   +0.0100	   +0.3610	 -126.4533	  +16.9147	 +154.6126	   +0.0337	  +23.5756	   +0.3519	 -121.6915
   +0.0200	   +0.3469	 -152.7429	  +13.8236	 +160.5436	   +0.0358	  +12.6732	   +0.3194	 -152.3381
   +0.0300	   +0.3466	 -162.7354	  +13.1125	 +163.7381	   +0.0364	   +9.1312	   +0.3139	 -165.4234
   +0.0400	   +0.3458	 -167.7449	  +12.8234	 +165.3457	   +0.0364	   +8.6627	   +0.3085	 -172.4342
   +0.0500	   +0.3464	 -171.6871	  +12.4660	 +165.8712	   +0.0369	   +7.5245	   +0.3070	 -177.6757
   +0.0600	   +0.3435	 -174.3968	  +12.3869	 +166.1051	   +0.0367	   +6.9531	   +0.3011	 +178.8151
   +0.0700	   +0.3455	 -176.2420	  +12.3887	 +165.7743	   +0.0364	   +7.1269	   +0.3011	 +174.2270
   +0.0800	   +0.3472	 -178.4388	  +12.2460	 +165.3736	   +0.0373	   +6.8079	   +0.2996	 +170.3870
   +0.0900	   +0.3464	 -179.9495	  +12.2835	 +165.0755	   +0.0374	   +7.5919	   +0.2983	 +169.1137
   +0.1000	   +0.3477	 +178.6621	  +12.1870	 +164.3094	   +0.0374	   +8.0847	   +0.2946	 +166.8094
   +0.1100	   +0.3425	 +177.6509	  +12.0477	 +163.2036	   +0.0365	   +8.2384	   +0.2908	 +163.8617
   +0.1200	   +0.3441	 +176.0967	  +12.0775	 +162.2859	   +0.0376	   +8.5229	   +0.2946	 +161.8062
   +0.1300	   +0.3423	 +175.3496	  +12.0902	 +161.2233	   +0.0379	   +8.7137	   +0.2877	 +160.5426
   +0.1400	   +0.3391	 +174.1347	  +12.0417	 +160.3968	   +0.0374	   +9.8033	   +0.2914	 +157.6264
   +0.1500	   +0.3391	 +173.4571	  +12.0094	 +159.7098	   +0.0377	  +10.6052	   +0.2857	 +155.6768
   +0.1600	   +0.3389	 +172.4645	  +11.9165	 +158.6877	   +0.0382	  +10.0940	   +0.2865	 +153.3926
   +0.1700	   +0.3352	 +171.5124	  +11.9143	 +158.0647	   +0.0384	  +10.3675	   +0.2861	 +152.4510
   +0.1800	   +0.3349	 +170.4840	  +11.9065	 +156.9100	   +0.0383	  +11.4471	   +0.2790	 +149.8924
   +0.1900	   +0.3314	 +169.4528	  +11.8687	 +155.6113	   +0.0390	  +11.1802	   +0.2875	 +148.6466
   +0.2000	   +0.3320	 +168.5816	  +11.7401	 +154.8930	   +0.0387	  +11.4748	   +0.2841	 +145.1371
   +0.2100	   +0.3292	 +168.0015	  +11.8395	 +153.9824	   +0.0390	  +12.5303	   +0.2830	 +143.6225
   +0.2200	   +0.3263	 +166.9092	  +11.7239	 +153.0550	   +0.0392	  +12.6120	   +0.2803	 +142.8350
   +0.2300	   +0.3281	 +166.4957	  +11.6696	 +152.4014	   +0.0397	  +13.1216	   +0.2752	 +140.8512
   +0.2400	   +0.3240	 +165.6634	  +11.6853	 +150.7594	   +0.0400	  +13.5381	   +0.2796	 +138.8794
   +0.2500	   +0.3208	 +164.8751	  +11.6111	 +150.5017	   +0.0397	  +13.3380	   +0.2798	 +137.6755
   +0.2600	   +0.3214	 +164.0912	  +11.6408	 +149.0692	   +0.0404	  +13.8767	   +0.2783	 +135.8330
   +0.2700	   +0.3165	 +163.8406	  +11.5459	 +147.8814	   +0.0405	  +14.7724	   +0.2738	 +133.1549
   +0.2800	   +0.3142	 +162.9044	  +11.4622	 +147.1284	   +0.0413	  +14.4219	   +0.2722	 +131.8429
   +0.2900	   +0.3095	 +162.2431	  +11.4847	 +145.4917	   +0.0411	  +14.6110	   +0.2714	 +130.8661
   +0.3000	   +0.3077	 +161.3790	  +11.3777	 +144.6818	   +0.0421	  +14.4387	   +0.2711	 +129.2781
   +0.3100	   +0.3028	 +160.7761	  +11.3296	 +143.9430	   +0.0417	  +15.5689	   +0.2761	 +127.5411
   +0.3200	   +0.3009	 +160.0000	  +11.3642	 +142.8598	   +0.0427	  +15.3711	   +0.2659	 +125.2514
   +0.3300	   +0.3009	 +160.4697	  +11.2472	 +142.1490	   +0.0425	  +15.5656	   +0.2649	 +123.6562
   +0.3400	   +0.2967	 +159.0797	  +11.3117	 +140.4699	   +0.0431	  +15.2064	   +0.2638	 +122.6877
   +0.3500	   +0.2971	 +159.3785	  +11.2228	 +139.8762	   +0.0438	  +16.7922	   +0.2606	 +121.0604
   +0.3600	   +0.2923	 +158.2464	  +11.1511	 +138.3779	   +0.0441	  +15.8184	   +0.2629	 +115.9085
   +0.3700	   +0.2901	 +158.5209	  +11.0802	 +138.1528	   +0.0434	  +15.8766	   +0.2604	 +116.9442
   +0.3800	   +0.2867	 +157.0513	  +10.9313	 +136.2506	   +0.0443	  +17.0701	   +0.2633	 +116.6311
   +0.3900	   +0.2806	 +157.0645	  +10.8782	 +135.7493	   +0.0443	  +17.3681	   +0.2601	 +114.9419
   +0.4000	   +0.2791	 +155.9087	  +10.8494	 +134.8560	   +0.0444	  +16.5861	   +0.2626	 +112.7378
   +0.4100	   +0.2749	 +156.6410	  +10.8378	 +134.1904	   +0.0446	  +16.5855	   +0.2646	 +111.8548
   +0.4200	   +0.2760	 +156.1346	  +10.7397	 +132.6397	   +0.0456	  +16.5983	   +0.2555	 +109.2795
   +0.4300	   +0.2711	 +155.7949	  +10.6850	 +131.1684	   +0.0459	  +18.2168	   +0.2566	 +109.1654
   +0.4400	   +0.2738	 +154.5905	  +10.7377	 +130.9232	   +0.0468	  +17.1956	   +0.2571	 +105.8015
   +0.4500	   +0.2665	 +154.6146	  +10.5714	 +129.3657	   +0.0471	  +17.6226	   +0.2608	 +105.0178
   +0.4600	   +0.2683	 +154.2686	  +10.6186	 +128.9264	   +0.0476	  +17.1014	   +0.2483	 +102.9669
   +0.4700	   +0.2643	 +153.1894	  +10.4596	 +127.6434	   +0.0467	  +16.6614	   +0.2533	 +101.7336
   +0.4800	   +0.2658	 +153.4989	  +10.4632	 +126.5426	   +0.0483	  +17.8078	   +0.2571	 +100.6951
   +0.4900	   +0.2620	 +152.3416	  +10.3728	 +125.5493	   +0.0485	  +18.2918	   +0.2598	  +99.1072
   +0.5000	   +0.2625	 +151.8768	  +10.2483	 +124.6888	   +0.0480	  +17.9581	   +0.2565	  +97.4408
   +0.5100	   +0.2558	 +151.7720	  +10.2185	 +123.6589	   +0.0486	  +17.2088	   +0.2523	  +96.6827
   +0.5200	   +0.2608	 +152.1642	  +10.2375	 +122.7979	   +0.0492	  +18.2707	   +0.2481	  +95.2250
   +0.5300	   +0.2510	 +151.1073	  +10.1034	 +121.6514	   +0.0495	  +17.4246	   +0.2526	  +94.1288
   +0.5400	   +0.2559	 +151.1858	  +10.0446	 +121.1137	   +0.0502	  +17.9955	   +0.2484	  +93.6595
   +0.5500	   +0.2486	 +151.4559	  +10.0165	 +120.2424	   +0.0505	  +18.0597	   +0.2512	  +91.6218
   +0.5600	   +0.2476	 +150.5035	   +9.9131	 +119.1659	   +0.0505	  +17.4743	   +0.2444	  +90.3363
   +0.5700	   +0.2484	 +149.9271	   +9.9318	 +118.2004	   +0.0509	  +17.8840	   +0.2453	  +88.4247
   +0.5800	   +0.2416	 +148.7632	   +9.7479	 +117.0181	   +0.0512	  +18.0397	   +0.2437	  +88.1381
   +0.5900	   +0.2419	 +149.4295	   +9.7991	 +116.8242	   +0.0519	  +18.1034	   +0.2475	  +86.6738
   +0.6000	   +0.2388	 +150.1797	   +9.6944	 +115.5338	   +0.0517	  +17.6435	   +0.2454	  +85.4464
   +0.6100	   +0.2374	 +150.1384	   +9.6641	 +114.7432	   +0.0525	  +17.7903	   +0.2488	  +86.4693
   +0.6200	   +0.2327	 +149.4577	   +9.5275	 +113.9601	   +0.0525	  +17.6723	   +0.2412	  +81.1568
   +0.6300	   +0.2346	 +148.9682	   +9.4988	 +112.8111	   +0.0528	  +17.9284	   +0.2439	  +80.5695
   +0.6400	   +0.2353	 +149.9351	   +9.4079	 +111.8279	   +0.0526	  +17.9120	   +0.2308	  +79.5265
   +0.6500	   +0.2303	 +148.8122	   +9.4047	 +110.6612	   +0.0538	  +18.3065	   +0.2429	  +81.8490
   +0.6600	   +0.2279	 +149.3356	   +9.3221	 +110.2375	   +0.0532	  +18.6635	   +0.2498	  +78.3091
   +0.6700	   +0.2284	 +148.7717	   +9.2974	 +109.2990	   +0.0546	  +17.9362	   +0.2449	  +76.9232
   +0.6800	   +0.2266	 +148.9267	   +9.2089	 +108.4830	   +0.0541	  +18.1115	   +0.2408	  +78.1012
   +0.6900	   +0.2293	 +148.4802	   +9.1542	 +107.7033	   +0.0549	  +17.2164	   +0.2467	  +73.2397
   +0.7000	   +0.2236	 +149.3934	   +9.1495	 +106.9409	   +0.0550	  +18.4500	   +0.2439	  +73.4628
   +0.7100	   +0.2261	 +148.0508	   +8.9887	 +106.0544	   +0.0552	  +16.8437	   +0.2358	  +71.6389
   +0.7200	   +0.2219	 +148.8096	   +9.0018	 +105.8139	   +0.0549	  +17.7609	   +0.2481	  +70.0061
   +0.7300	   +0.2237	 +148.0203	   +8.9370	 +104.3749	   +0.0566	  +17.1484	   +0.2415	  +71.1610
   +0.7400	   +0.2182	 +148.3850	   +8.8715	 +103.7257	   +0.0566	  +17.4287	   +0.2456	  +70.7242
   +0.7500	   +0.2177	 +147.9061	   +8.8081	 +102.8830	   +0.0574	  +17.1139	   +0.2470	  +68.2676
   +0.7600	   +0.2206	 +147.6609	   +8.6893	 +102.1516	   +0.0575	  +18.4830	   +0.2346	  +68.8033
   +0.7700	   +0.2181	 +147.9800	   +8.7026	 +100.8894	   +0.0580	  +17.5454	   +0.2352	  +66.5701
   +0.7800	   +0.2116	 +148.7726	   +8.6033	 +100.4738	   +0.0579	  +17.5633	   +0.2271	  +67.2412
   +0.7900	   +0.2112	 +147.6482	   +8.5579	  +99.7563	   +0.0590	  +16.7688	   +0.2368	  +64.4389
   +0.8000	   +0.2102	 +148.3650	   +8.4953	  +99.1911	   +0.0590	  +17.7349	   +0.2402	  +63.7800
   +0.8100	   +0.2086	 +147.8512	   +8.4468	  +98.0617	   +0.0590	  +17.2112	   +0.2345	  +62.8381
   +0.8200	   +0.2103	 +147.5381	   +8.3914	  +97.3616	   +0.0596	  +16.9565	   +0.2225	  +59.4189
   +0.8300	   +0.2039	 +147.0502	   +8.3326	  +96.4837	   +0.0595	  +17.5923	   +0.2305	  +58.0847
   +0.8400	   +0.2044	 +146.7466	   +8.3131	  +96.1232	   +0.0614	  +16.7545	   +0.2294	  +57.2570
   +0.8500	   +0.2010	 +146.9530	   +8.2369	  +95.0367	   +0.0602	  +16.7730	   +0.2297	  +56.0914
   +0.8600	   +0.2028	 +147.3984	   +8.2334	  +94.7148	   +0.0607	  +17.0577	   +0.2262	  +57.5018
   +0.8700	   +0.1988	 +147.7718	   +8.1128	  +93.6129	   +0.0612	  +16.5699	   +0.2211	  +56.3077
   +0.8800	   +0.1991	 +146.8488	   +8.0993	  +92.6953	   +0.0617	  +16.5529	   +0.2252	  +52.4920
   +0.8900	   +0.1965	 +146.8931	   +8.0247	  +91.8550	   +0.0618	  +16.2116	   +0.2274	  +51.7316
   +0.9000	   +0.1923	 +147.1376	   +7.9951	  +90.6334	   +0.0619	  +16.2684	   +0.2192	  +51.6846
   +0.9100	   +0.1978	 +147.4581	   +7.8897	  +90.6737	   +0.0625	  +15.8104	   +0.2268	  +51.8670
   +0.9200	   +0.1961	 +148.8852	   +7.8828	  +89.8296	   +0.0631	  +16.0744	   +0.2251	  +48.9686
   +0.9300	   +0.1942	 +148.1530	   +7.8347	  +89.2430	   +0.0633	  +16.3568	   +0.2279	  +49.0017
   +0.9400	   +0.1905	 +148.3381	   +7.7846	  +88.3178	   +0.0638	  +16.0847	   +0.2271	  +47.9355
   +0.9500	   +0.1921	 +148.1698	   +7.7148	  +87.4317	   +0.0639	  +16.0873	   +0.2175	  +47.8837
   +0.9600	   +0.1935	 +147.3867	   +7.6582	  +86.5786	   +0.0642	  +15.6491	   +0.2169	  +46.2031
   +0.9700	   +0.1895	 +148.2333	   +7.6011	  +85.9406	   +0.0653	  +15.3156	   +0.2234	  +44.8229
   +0.9800	   +0.1863	 +147.5141	   +7.5482	  +85.1760	   +0.0657	  +16.3358	   +0.2157	  +45.7853
   +0.9900	   +0.1852	 +148.6897	   +7.5052	  +84.7442	   +0.0655	  +14.6964	   +0.2238	  +43.7736
   +1.0000	   +0.1842	 +147.3673	   +7.4703	  +84.0610	   +0.0662	  +14.8714	   +0.2131	  +40.9871
   +1.0100	   +0.1819	 +147.2402	   +7.3654	  +83.2882	   +0.0659	  +14.0314	   +0.2137	  +40.6860
   +1.0200	   +0.1835	 +147.4899	   +7.3637	  +82.5937	   +0.0673	  +14.4245	   +0.2196	  +39.2300
   +1.0300	   +0.1814	 +147.5785	   +7.3411	  +82.2439	   +0.0671	  +14.3270	   +0.2110	  +38.7064
   +1.0400	   +0.1837	 +147.3979	   +7.2959	  +81.5565	   +0.0671	  +14.7512	   +0.2165	  +39.6939
   +1.0500	   +0.1799	 +147.1404	   +7.2398	  +80.4576	   +0.0672	  +14.7495	   +0.2125	  +37.0674
   +1.0600	   +0.1833	 +146.6102	   +7.2342	  +79.6806	   +0.0683	  +14.4105	   +0.2179	  +36.9839
   +1.0700	   +0.1804	 +146.9134	   +7.1765	  +78.8904	   +0.0685	  +14.2637	   +0.2171	  +36.3850
   +1.0800	   +0.1809	 +146.5874	   +7.1069	  +78.1373	   +0.0693	  +14.3009	   +0.2145	  +35.0488
   +1.0900	   +0.1803	 +147.9643	   +7.0083	  +77.7474	   +0.0698	  +13.7175	   +0.2110	  +33.9912
   +1.1000	   +0.1798	 +147.4304	   +6.9615	  +77.2192	   +0.0701	  +14.0907	   +0.2154	  +33.4221
   +1.1100	   +0.1764	 +147.5334	   +6.9081	  +76.5531	   +0.0711	  +13.4965	   +0.2139	  +32.2931
   +1.1200	   +0.1780	 +147.2316	   +6.8969	  +76.1467	   +0.0708	  +12.9923	   +0.2083	  +32.0089
   +1.1300	   +0.1781	 +147.6304	   +6.8462	  +75.4603	   +0.0711	  +13.0923	   +0.2160	  +29.6043
   +1.1400	   +0.1746	 +147.6298	   +6.8284	  +74.5476	   +0.0704	  +12.3070	   +0.2046	  +29.4990
   +1.1500	   +0.1765	 +148.5563	   +6.8211	  +74.1729	   +0.0711	  +13.0670	   +0.2073	  +28.4550
   +1.1600	   +0.1749	 +148.1731	   +6.7969	  +73.3433	   +0.0711	  +13.1789	   +0.2028	  +26.9777
   +1.1700	   +0.1748	 +148.1956	   +6.7365	  +72.5290	   +0.0721	  +13.1523	   +0.2041	  +27.5806
   +1.1800	   +0.1726	 +148.6074	   +6.6890	  +71.6312	   +0.0726	  +12.6291	   +0.2050	  +26.1398
   +1.1900	   +0.1751	 +149.0302	   +6.6422	  +71.0123	   +0.0736	  +12.2494	   +0.2042	  +25.2282
   +1.2000	   +0.1716	 +148.1380	   +6.5538	  +70.4837	   +0.0742	  +12.3077	   +0.2060	  +23.7018
   +1.2100	   +0.1716	 +149.0301	   +6.5081	  +69.7650	   +0.0745	  +11.9514	   +0.2025	  +23.8375
   +1.2200	   +0.1705	 +149.1435	   +6.5308	  +69.5001	   +0.0743	  +11.6052	   +0.2052	  +22.3403
   +1.2300	   +0.1708	 +148.8357	   +6.4361	  +68.9194	   +0.0746	  +11.1979	   +0.2047	  +21.2509
   +1.2400	   +0.1702	 +149.3005	   +6.4176	  +68.4673	   +0.0756	  +11.1909	   +0.1973	  +20.2671
   +1.2500	   +0.1682	 +148.7554	   +6.3786	  +67.5006	   +0.0747	  +11.4350	   +0.1952	  +19.5178
   +1.2600	   +0.1686	 +149.1643	   +6.4095	  +66.9097	   +0.0754	  +11.0893	   +0.2008	  +19.0326
   +1.2700	   +0.1704	 +149.5964	   +6.3848	  +66.1225	   +0.0761	  +11.0209	   +0.1993	  +18.3448
   +1.2800	   +0.1666	 +149.8951	   +6.3264	  +65.4367	   +0.0765	  +11.2449	   +0.1966	  +15.4591
   +1.2900	   +0.1647	 +150.0161	   +6.2497	  +64.6202	   +0.0762	  +10.9624	   +0.1927	  +15.4593
   +1.3000	   +0.1663	 +149.8567	   +6.1851	  +64.1551	   +0.0776	  +10.7440	   +0.1953	  +14.3456
   +1.3100	   +0.1655	 +150.3272	   +6.1280	  +63.8760	   +0.0782	   +9.7067	   +0.1943	  +14.0035
   +1.3200	   +0.1651	 +150.0882	   +6.0973	  +63.2215	   +0.0786	   +9.2392	   +0.1942	  +12.1944
   +1.3300	   +0.1639	 +150.0775	   +6.0583	  +62.4849	   +0.0785	  +10.1332	   +0.1871	  +11.8657
   +1.3400	   +0.1634	 +150.7040	   +6.0523	  +62.1159	   +0.0784	   +8.8279	   +0.1942	  +11.6383
   +1.3500	   +0.1622	 +151.2439	   +6.0663	  +61.2957	   +0.0782	   +8.9783	   +0.1892	   +9.1325
   +1.3600	   +0.1625	 +150.7500	   +6.0185	  +60.2569	   +0.0790	   +8.9698	   +0.1926	   +8.6478
   +1.3700	   +0.1616	 +150.9281	   +5.9165	  +59.6088	   +0.0790	   +9.0123	   +0.1907	   +7.0568
   +1.3800	   +0.1620	 +150.7438	   +5.9302	  +59.1163	   +0.0796	   +8.8909	   +0.1914	   +7.3340
   +1.3900	   +0.1608	 +151.5197	   +5.8885	  +58.6957	   +0.0796	   +8.5987	   +0.1851	   +7.1619
   +1.4000	   +0.1584	 +151.5557	   +5.8279	  +58.0730	   +0.0801	   +8.6627	   +0.1855	   +5.9962
   +1.4100	   +0.1557	 +151.1963	   +5.7879	  +57.7056	   +0.0805	   +8.1293	   +0.1878	   +4.7718
   +1.4200	   +0.1591	 +152.3165	   +5.7857	  +57.2622	   +0.0817	   +8.2368	   +0.1847	   +4.9763
   +1.4300	   +0.1579	 +151.0626	   +5.7676	  +56.4741	   +0.0818	   +7.4650	   +0.1830	   +3.0874
   +1.4400	   +0.1562	 +151.2738	   +5.7454	  +55.7927	   +0.0831	   +7.3293	   +0.1855	   +2.0789
   +1.4500	   +0.1603	 +151.9493	   +5.7313	  +55.8862	   +0.0829	   +7.2408	   +0.1882	   +1.3192
   +1.4600	   +0.1566	 +151.5851	   +5.6735	  +54.5810	   +0.0827	   +6.5404	   +0.1781	   +1.0947
   +1.4700	   +0.1575	 +151.9158	   +5.6802	  +54.2236	   +0.0829	   +7.1270	   +0.1817	   -0.0914
   +1.4800	   +0.1579	 +152.4741	   +5.6152	  +53.6144	   +0.0831	   +6.4233	   +0.1876	   -0.2983
   +1.4900	   +0.1536	 +151.1224	   +5.5973	  +52.8672	   +0.0849	   +6.0047	   +0.1834	   -2.9476
   +1.5000	   +0.1527	 +152.3799	   +5.5289	  +52.1747	   +0.0846	   +6.0777	   +0.1811	   -3.7723
   +1.5100	   +0.1531	 +152.5038	   +5.5025	  +52.2220	   +0.0853	   +5.6795	   +0.1745	   -4.5290
   +1.5200	   +0.1533	 +152.6304	   +5.4474	  +51.6370	   +0.0852	   +5.3304	   +0.1800	   -6.3796
   +1.5300	   +0.1560	 +153.0828	   +5.4559	  +51.0975	   +0.0851	   +6.1192	   +0.1763	   -6.2143
   +1.5400	   +0.1547	 +152.8992	   +5.3922	  +50.1008	   +0.0854	   +5.0584	   +0.1819	   -7.5699
   +1.5500	   +0.1561	 +152.2053	   +5.4187	  +49.5902	   +0.0861	   +4.5169	   +0.1811	   -7.7949
   +1.5600	   +0.1554	 +153.7092	   +5.3931	  +49.2350	   +0.0873	   +5.0191	   +0.1773	   -8.4275
   +1.5700	   +0.1560	 +153.0565	   +5.3770	  +48.4715	   +0.0866	   +5.1318	   +0.1832	  -11.8574
   +1.5800	   +0.1565	 +153.9021	   +5.3126	  +47.9449	   +0.0875	   +4.4663	   +0.1838	   -8.8868
   +1.5900	   +0.1564	 +154.1249	   +5.3067	  +46.9500	   +0.0883	   +4.3233	   +0.1827	  -11.6660
   +1.6000	   +0.1543	 +153.2221	   +5.2522	  +46.3184	   +0.0887	   +4.2985	   +0.1834	  -12.7842
   +1.6100	   +0.1533	 +154.0013	   +5.2235	  +46.0908	   +0.0883	   +3.6307	   +0.1795	  -12.5563
   +1.6200	   +0.1532	 +154.2927	   +5.2000	  +45.6239	   +0.0893	   +3.2279	   +0.1894	  -11.9590
   +1.6300	   +0.1565	 +154.2871	   +5.1711	  +45.0191	   +0.0883	   +3.6609	   +0.1807	  -12.4144
   +1.6400	   +0.1568	 +154.0984	   +5.1443	  +44.6039	   +0.0899	   +3.3536	   +0.1804	  -14.5709
   +1.6500	   +0.1521	 +154.4684	   +5.1506	  +43.6537	   +0.0902	   +2.4630	   +0.1875	  -13.5448
   +1.6600	   +0.1516	 +153.5187	   +5.0921	  +43.3254	   +0.0894	   +2.5996	   +0.1800	  -18.0364
   +1.6700	   +0.1551	 +154.2633	   +5.0586	  +43.0600	   +0.0911	   +2.0616	   +0.1833	  -15.2279
   +1.6800	   +0.1555	 +154.6566	   +5.0374	  +42.5507	   +0.0903	   +2.0867	   +0.1791	  -17.5156
   +1.6900	   +0.1566	 +153.8294	   +5.0063	  +41.8233	   +0.0921	   +1.4927	   +0.1814	  -18.2650
   +1.7000	   +0.1545	 +154.0170	   +4.9695	  +41.2196	   +0.0915	   +0.8315	   +0.1792	  -16.2171
   +1.7100	   +0.1554	 +155.0278	   +4.9570	  +40.7439	   +0.0920	   +1.0380	   +0.1784	  -19.3129
   +1.7200	   +0.1545	 +154.7459	   +4.9378	  +40.3837	   +0.0915	   +1.4385	   +0.1787	  -18.8217
   +1.7300	   +0.1515	 +153.8195	   +4.9365	  +39.5538	   +0.0923	   +0.6773	   +0.1740	  -19.1149
   +1.7400	   +0.1520	 +153.4555	   +4.8916	  +39.1216	   +0.0933	   +0.7731	   +0.1840	  -22.1271
   +1.7500	   +0.1541	 +153.8689	   +4.8928	  +38.5741	   +0.0925	   +0.2126	   +0.1835	  -22.1243
   +1.7600	   +0.1566	 +153.2952	   +4.8685	  +37.9445	   +0.0940	   -0.4047	   +0.1785	  -23.2906
   +1.7700	   +0.1554	 +154.5318	   +4.8037	  +37.7575	   +0.0948	   -0.1891	   +0.1844	  -21.5522
   +1.7800	   +0.1544	 +154.4052	   +4.7670	  +37.0483	   +0.0942	   -0.3527	   +0.1766	  -22.5563
   +1.7900	   +0.1538	 +152.9609	   +4.7591	  +36.2768	   +0.0950	   -0.6624	   +0.1731	  -23.4320
   +1.8000	   +0.1542	 +154.0474	   +4.6996	  +35.9460	   +0.0957	   -1.2520	   +0.1693	  -24.7955
   +1.8100	   +0.1528	 +154.2268	   +4.7628	  +35.0986	   +0.0949	   -1.1818	   +0.1799	  -23.6146
   +1.8200	   +0.1540	 +154.7206	   +4.7058	  +34.7512	   +0.0957	   -1.4225	   +0.1732	  -27.8020
   +1.8300	   +0.1548	 +154.1635	   +4.6926	  +34.1903	   +0.0962	   -1.8499	   +0.1760	  -25.6608
   +1.8400	   +0.1568	 +154.4451	   +4.6610	  +33.4562	   +0.0970	   -1.9375	   +0.1794	  -26.5542
   +1.8500	   +0.1535	 +154.2664	   +4.6348	  +33.3008	   +0.0961	   -1.9427	   +0.1681	  -27.6686
   +1.8600	   +0.1527	 +154.5375	   +4.6135	  +32.7440	   +0.0969	   -2.7056	   +0.1716	  -30.3320
   +1.8700	   +0.1529	 +154.8078	   +4.6084	  +31.9935	   +0.0980	   -2.7138	   +0.1676	  -33.6315
   +1.8800	   +0.1517	 +154.7251	   +4.5682	  +32.0057	   +0.0986	   -2.7556	   +0.1720	  -29.5063
   +1.8900	   +0.1564	 +154.1749	   +4.5548	  +31.0691	   +0.0996	   -3.1588	   +0.1681	  -29.6097
   +1.9000	   +0.1521	 +155.4485	   +4.5232	  +30.2589	   +0.1005	   -2.8471	   +0.1736	  -32.0764
   +1.9100	   +0.1537	 +153.7479	   +4.5329	  +30.1445	   +0.1004	   -4.0225	   +0.1833	  -28.9200
   +1.9200	   +0.1547	 +154.3613	   +4.4993	  +29.4931	   +0.1016	   -4.6788	   +0.1615	  -32.2705
   +1.9300	   +0.1523	 +155.4881	   +4.4715	  +29.0197	   +0.0993	   -4.3490	   +0.1792	  -32.9301
   +1.9400	   +0.1491	 +154.7805	   +4.4648	  +28.4919	   +0.1001	   -4.4955	   +0.1717	  -34.6356
